T3CC0 000:045.690   SEGGER J-Link V7.22b Log File
T3CC0 000:046.581   DLL Compiled: Jun 17 2021 17:22:49
T3CC0 000:046.592   Logging started @ 2022-05-24 04:05
T3CC0 000:046.603 - 46.608ms
T3CC0 000:046.878 JLINK_SetWarnOutHandler(...)
T3CC0 000:047.099 - 0.228ms
T3CC0 000:047.120 JLINK_OpenEx(...)
T3CC0 000:053.056   Firmware: J-Link EDU Mini V1 compiled Jun 17 2021 16:46:54
T3CC0 000:053.508   Firmware: J-Link EDU Mini V1 compiled Jun 17 2021 16:46:54
T3CC0 000:056.205   Decompressing FW timestamp took 2610 us
T3CC0 000:072.080   Hardware: V1.00
T3CC0 000:072.125   S/N: 801015646
T3CC0 000:072.147   OEM: SEGGER
T3CC0 000:072.161   Feature(s): FlashBP, GDB
T3CC0 000:075.231   Looking for J-Link GUI Server exe at: C:\Keil_v5\ARM\Segger\JLinkGUIServer.exe
T3CC0 000:075.404   Looking for J-Link GUI Server exe at: \JLinkGUIServer.exe
T3CC0 000:376.367   Failed to connect to J-Link GUI Server.
T3CC0 002:230.001   TELNET listener socket opened on port 19021
T3CC0 002:230.824   WEBSRV Starting webserver
T3CC0 002:231.378   WEBSRV Webserver running on local port 19080
T3CC0 002:231.423 - 2184.330ms returns "O.K."
T3CC0 002:231.495 JLINK_GetEmuCaps()
T3CC0 002:231.516 - 0.028ms returns 0xB8EA5A33
T3CC0 002:231.547 JLINK_TIF_GetAvailable(...)
T3CC0 002:231.792 - 0.265ms
T3CC0 002:231.828 JLINK_SetErrorOutHandler(...)
T3CC0 002:231.842 - 0.020ms
T3CC0 002:232.184 JLINK_ExecCommand("ProjectFile = "C:\Users\Jean\OneDrive - RMIT University\UNI\2022\Embedded\Projects\Final Project\JLinkSettings.ini"", ...). 
T3CC0 002:273.477 - 41.315ms returns 0x00
T3CC0 002:273.599 JLINK_ExecCommand("Device = STM32F439IITx", ...). 
T3CC0 002:276.891   Device "STM32F439II" selected.
T3CC0 002:277.447 - 3.839ms returns 0x00
T3CC0 002:277.737 JLINK_GetHardwareVersion()
T3CC0 002:277.762 - 0.031ms returns 10000
T3CC0 002:277.782 JLINK_GetDLLVersion()
T3CC0 002:277.800 - 0.025ms returns 72202
T3CC0 002:277.820 JLINK_GetOEMString(...)
T3CC0 002:277.838 JLINK_GetFirmwareString(...)
T3CC0 002:277.865 - 0.033ms
T3CC0 002:277.933 JLINK_GetDLLVersion()
T3CC0 002:277.954 - 0.028ms returns 72202
T3CC0 002:277.972 JLINK_GetCompileDateTime()
T3CC0 002:277.985 - 0.019ms
T3CC0 002:278.061 JLINK_GetFirmwareString(...)
T3CC0 002:278.082 - 0.027ms
T3CC0 002:278.116 JLINK_GetHardwareVersion()
T3CC0 002:278.132 - 0.024ms returns 10000
T3CC0 002:278.163 JLINK_GetSN()
T3CC0 002:278.180 - 0.024ms returns 801015646
T3CC0 002:278.208 JLINK_GetOEMString(...)
T3CC0 002:278.256 JLINK_TIF_Select(JLINKARM_TIF_JTAG)
T3CC0 002:279.369 - 1.131ms returns 0x00
T3CC0 002:279.415 JLINK_HasError()
T3CC0 002:279.767 JLINK_SetSpeed(5000)
T3CC0 002:279.962 - 0.206ms
T3CC0 002:279.992 JLINK_GetIdData(pIdData)
T3CC0 002:280.615   InitTarget() start
T3CC0 002:280.648    J-Link Script File: Executing InitTarget()
T3CC0 002:287.210   InitTarget() end
T3CC0 002:288.271   TotalIRLen = 9, IRPrint = 0x0011
T3CC0 002:288.677   JTAG chain detection found 2 devices:
T3CC0 002:288.704    #0 Id: 0x4BA00477, IRLen: 04, CoreSight JTAG-DP
T3CC0 002:288.724    #1 Id: 0x06419041, IRLen: 05, STM32 Boundary Scan
T3CC0 002:290.317   DPv0 detected
T3CC0 002:290.348   Scanning AP map to find all available APs
T3CC0 002:291.140   AP[1]: Stopped AP scan as end of AP map has been reached
T3CC0 002:291.166   AP[0]: AHB-AP (IDR: 0x24770011)
T3CC0 002:291.186   Iterating through AP map to find AHB-AP to use
T3CC0 002:292.041   AP[0]: Core found
T3CC0 002:292.066   AP[0]: AHB-AP ROM base: 0xE00FF000
T3CC0 002:292.750   CPUID register: 0x410FC241. Implementer code: 0x41 (ARM)
T3CC0 002:292.776   Found Cortex-M4 r0p1, Little endian.
T3CC0 002:293.129   -- Max. mem block: 0x000013C8
T3CC0 002:293.240   CPU_ReadMem(4 bytes @ 0xE000EDF0)
T3CC0 002:295.058   CPU_ReadMem(4 bytes @ 0xE0002000)
T3CC0 002:295.556   FPUnit: 6 code (BP) slots and 2 literal slots
T3CC0 002:295.598   CPU_ReadMem(4 bytes @ 0xE000EDFC)
T3CC0 002:296.061   CPU_WriteMem(4 bytes @ 0xE000EDFC)
T3CC0 002:296.409   CPU_ReadMem(4 bytes @ 0xE0001000)
T3CC0 002:296.811   CPU_WriteMem(4 bytes @ 0xE0001000)
T3CC0 002:297.220   CPU_ReadMem(4 bytes @ 0xE000ED88)
T3CC0 002:297.631   CPU_WriteMem(4 bytes @ 0xE000ED88)
T3CC0 002:297.975   CPU_ReadMem(4 bytes @ 0xE000ED88)
T3CC0 002:298.361   CPU_WriteMem(4 bytes @ 0xE000ED88)
T3CC0 002:298.732   CoreSight components:
T3CC0 002:298.772   ROMTbl[0] @ E00FF000
T3CC0 002:298.789   CPU_ReadMem(64 bytes @ 0xE00FF000)
T3CC0 002:299.518   CPU_ReadMem(32 bytes @ 0xE000EFE0)
T3CC0 002:300.110   ROMTbl[0][0]: E000E000, CID: B105E00D, PID: 000BB00C SCS-M7
T3CC0 002:300.152   CPU_ReadMem(32 bytes @ 0xE0001FE0)
T3CC0 002:300.831   ROMTbl[0][1]: E0001000, CID: B105E00D, PID: 003BB002 DWT
T3CC0 002:300.859   CPU_ReadMem(32 bytes @ 0xE0002FE0)
T3CC0 002:301.421   ROMTbl[0][2]: E0002000, CID: B105E00D, PID: 002BB003 FPB
T3CC0 002:301.476   CPU_ReadMem(32 bytes @ 0xE0000FE0)
T3CC0 002:302.057   ROMTbl[0][3]: E0000000, CID: B105E00D, PID: 003BB001 ITM
T3CC0 002:302.079   CPU_ReadMem(32 bytes @ 0xE0040FE0)
T3CC0 002:302.683   ROMTbl[0][4]: E0040000, CID: B105900D, PID: 000BB9A1 TPIU
T3CC0 002:302.703   CPU_ReadMem(32 bytes @ 0xE0041FE0)
T3CC0 002:303.276   ROMTbl[0][5]: E0041000, CID: B105900D, PID: 000BB925 ETM
T3CC0 002:303.650   pIdData->ScanLen=9
T3CC0 002:303.670   
T3CC0 002:303.680   pIdData->NumDevices=2
T3CC0 002:303.694   
T3CC0 002:303.710   pIdData->aId[0]=0x4BA00477
T3CC0 002:303.724   
T3CC0 002:303.734   pIdData->aIrRead[0]=0
T3CC0 002:303.757   
T3CC0 002:303.773   pIdData->aScanLen[0]=0
T3CC0 002:303.791   
T3CC0 002:303.806   pIdData->aScanRead[0]=0
T3CC0 002:303.825   
T3CC0 002:303.837 - 23.852ms
T3CC0 002:303.869 JLINK_JTAG_GetDeviceID(DeviceIndex = 0)
T3CC0 002:303.888 - 0.025ms returns 1268778103
T3CC0 002:303.910 JLINK_JTAG_GetDeviceInfo(DeviceIndex = 0)
T3CC0 002:303.923 - 0.019ms returns 0
T3CC0 002:303.945 JLINK_JTAG_GetDeviceID(DeviceIndex = 1)
T3CC0 002:303.960 - 0.022ms returns 104960065
T3CC0 002:303.981 JLINK_JTAG_GetDeviceInfo(DeviceIndex = 1)
T3CC0 002:304.000 - 0.029ms returns 0
T3CC0 002:304.091 JLINK_GetDLLVersion()
T3CC0 002:304.111 - 0.027ms returns 72202
T3CC0 002:304.130 JLINK_CORE_GetFound()
T3CC0 002:304.143 - 0.020ms returns 0xE0000FF
T3CC0 002:304.175 JLINK_GetDebugInfo(0x100 = JLINKARM_ROM_TABLE_ADDR_INDEX)
T3CC0 002:304.189   Value=0xE00FF000
T3CC0 002:304.208 - 0.053ms returns 0
T3CC0 002:304.257 JLINK_GetDebugInfo(0x100 = JLINKARM_ROM_TABLE_ADDR_INDEX)
T3CC0 002:304.273   Value=0xE00FF000
T3CC0 002:304.291 - 0.040ms returns 0
T3CC0 002:304.308 JLINK_GetDebugInfo(0x101 = JLINKARM_DEBUG_INFO_ETM_ADDR_INDEX)
T3CC0 002:304.323   Value=0xE0041000
T3CC0 002:304.355 - 0.053ms returns 0
T3CC0 002:304.372 JLINK_ReadMemEx(0xE0041FD0, 0x20 Bytes, Flags = 0x02000004)
T3CC0 002:304.434   CPU_ReadMem(32 bytes @ 0xE0041FD0)
T3CC0 002:305.052   Data:  04 00 00 00 00 00 00 00 00 00 00 00 00 00 00 00 ...
T3CC0 002:305.076 - 0.710ms returns 32 (0x20)
T3CC0 002:305.097 JLINK_GetDebugInfo(0x102 = JLINKARM_DEBUG_INFO_MTB_ADDR_INDEX)
T3CC0 002:305.112   Value=0x00000000
T3CC0 002:305.131 - 0.040ms returns 0
T3CC0 002:305.148 JLINK_GetDebugInfo(0x103 = JLINKARM_DEBUG_INFO_TPIU_ADDR_INDEX)
T3CC0 002:305.162   Value=0xE0040000
T3CC0 002:305.181 - 0.040ms returns 0
T3CC0 002:305.199 JLINK_GetDebugInfo(0x104 = JLINKARM_DEBUG_INFO_ITM_ADDR_INDEX)
T3CC0 002:305.213   Value=0xE0000000
T3CC0 002:305.231 - 0.039ms returns 0
T3CC0 002:305.248 JLINK_GetDebugInfo(0x105 = JLINKARM_DEBUG_INFO_DWT_ADDR_INDEX)
T3CC0 002:305.264   Value=0xE0001000
T3CC0 002:305.288 - 0.047ms returns 0
T3CC0 002:305.306 JLINK_GetDebugInfo(0x106 = JLINKARM_DEBUG_INFO_FPB_ADDR_INDEX)
T3CC0 002:305.319   Value=0xE0002000
T3CC0 002:305.336 - 0.034ms returns 0
T3CC0 002:305.352 JLINK_GetDebugInfo(0x107 = JLINKARM_DEBUG_INFO_NVIC_ADDR_INDEX)
T3CC0 002:305.371   Value=0xE000E000
T3CC0 002:305.393 - 0.047ms returns 0
T3CC0 002:305.412 JLINK_GetDebugInfo(0x10C = JLINKARM_DEBUG_INFO_DBG_ADDR_INDEX)
T3CC0 002:305.429   Value=0xE000EDF0
T3CC0 002:305.449 - 0.043ms returns 0
T3CC0 002:305.465 JLINK_GetDebugInfo(0x01 = Unknown)
T3CC0 002:305.479   Value=0x00000001
T3CC0 002:305.506 - 0.048ms returns 0
T3CC0 002:305.524 JLINK_ReadMemU32(0xE000ED00, 0x1 Items)
T3CC0 002:305.551   CPU_ReadMem(4 bytes @ 0xE000ED00)
T3CC0 002:305.974   Data:  41 C2 0F 41
T3CC0 002:305.998   Debug reg: CPUID
T3CC0 002:306.018 - 0.499ms returns 1 (0x1)
T3CC0 002:306.035 JLINK_GetDebugInfo(0x10F = JLINKARM_DEBUG_INFO_HAS_CORTEX_M_SECURITY_EXT_INDEX)
T3CC0 002:306.047   Value=0x00000000
T3CC0 002:306.071 - 0.043ms returns 0
T3CC0 002:306.089 JLINK_HasError()
T3CC0 002:306.110 JLINK_SetResetType(JLINKARM_CM3_RESET_TYPE_NORMAL)
T3CC0 002:306.125 - 0.022ms returns JLINKARM_CM3_RESET_TYPE_NORMAL
T3CC0 002:306.145 JLINK_Reset()
T3CC0 002:306.184   CPU is running
T3CC0 002:306.206   CPU_WriteMem(4 bytes @ 0xE000EDF0)
T3CC0 002:306.573   CPU is running
T3CC0 002:306.618   CPU_WriteMem(4 bytes @ 0xE000EDFC)
T3CC0 002:307.026   Reset: Halt core after reset via DEMCR.VC_CORERESET.
T3CC0 002:307.068   Reset: Reset device via AIRCR.SYSRESETREQ.
T3CC0 002:307.085   CPU is running
T3CC0 002:307.101   CPU_WriteMem(4 bytes @ 0xE000ED0C)
T3CC0 002:359.691   CPU_ReadMem(4 bytes @ 0xE000EDF0)
T3CC0 002:360.427   CPU_ReadMem(4 bytes @ 0xE000EDF0)
T3CC0 002:361.039   CPU is running
T3CC0 002:361.194   CPU_WriteMem(4 bytes @ 0xE000EDF0)
T3CC0 002:361.712   CPU is running
T3CC0 002:361.785   CPU_WriteMem(4 bytes @ 0xE000EDFC)
T3CC0 002:367.589   CPU_ReadMem(4 bytes @ 0xE000EDF0)
T3CC0 002:371.281   CPU_WriteMem(4 bytes @ 0xE000EDFC)
T3CC0 002:371.706   CPU_WriteMem(4 bytes @ 0xE0001028)
T3CC0 002:372.090   CPU_WriteMem(4 bytes @ 0xE0001038)
T3CC0 002:372.467   CPU_WriteMem(4 bytes @ 0xE0001048)
T3CC0 002:372.828   CPU_WriteMem(4 bytes @ 0xE0001058)
T3CC0 002:373.230   CPU_WriteMem(4 bytes @ 0xE0002000)
T3CC0 002:373.595   CPU_ReadMem(4 bytes @ 0xE000EDFC)
T3CC0 002:373.995   CPU_ReadMem(4 bytes @ 0xE0001000)
T3CC0 002:374.439 - 68.307ms
T3CC0 002:374.481 JLINK_HasError()
T3CC0 002:374.518 JLINK_ReadReg(R15 (PC))
T3CC0 002:374.570 - 0.059ms returns 0x08000008
T3CC0 002:374.597 JLINK_ReadReg(XPSR)
T3CC0 002:374.623 - 0.033ms returns 0x01000000
T3CC0 002:374.649 JLINK_Halt()
T3CC0 002:374.671 - 0.029ms returns 0x00
T3CC0 002:374.696 JLINK_ReadMemU32(0xE000EDF0, 0x1 Items)
T3CC0 002:374.728   CPU_ReadMem(4 bytes @ 0xE000EDF0)
T3CC0 002:375.145   Data:  03 00 03 00
T3CC0 002:375.176   Debug reg: DHCSR
T3CC0 002:375.199 - 0.511ms returns 1 (0x1)
T3CC0 002:375.231 JLINK_WriteU32_64(0xE000EDF0, 0xA05F0003)
T3CC0 002:375.250   Debug reg: DHCSR
T3CC0 002:375.846   CPU_WriteMem(4 bytes @ 0xE000EDF0)
T3CC0 002:376.251 - 1.037ms returns 0 (0x00000000)
T3CC0 002:376.292 JLINK_WriteU32_64(0xE000EDFC, 0x01000000)
T3CC0 002:376.315   Debug reg: DEMCR
T3CC0 002:376.350   CPU_WriteMem(4 bytes @ 0xE000EDFC)
T3CC0 002:376.774 - 0.500ms returns 0 (0x00000000)
T3CC0 002:376.887 JLINK_GetHWStatus(...)
T3CC0 002:377.094 - 0.220ms returns 0
T3CC0 002:377.166 JLINK_GetNumBPUnits(Type = 0xFFFFFF00)
T3CC0 002:377.184 - 0.025ms returns 0x06
T3CC0 002:377.203 JLINK_GetNumBPUnits(Type = 0xF0)
T3CC0 002:377.218 - 0.021ms returns 0x2000
T3CC0 002:377.235 JLINK_GetNumWPUnits()
T3CC0 002:377.252 - 0.024ms returns 4
T3CC0 002:377.295 JLINK_GetSpeed()
T3CC0 002:377.311 - 0.022ms returns 4000
T3CC0 002:377.346 JLINK_ReadMemU32(0xE000E004, 0x1 Items)
T3CC0 002:377.378   CPU_ReadMem(4 bytes @ 0xE000E004)
T3CC0 002:377.803   Data:  02 00 00 00
T3CC0 002:377.850 - 0.515ms returns 1 (0x1)
T3CC0 002:377.880 JLINK_ReadMemU32(0xE000E004, 0x1 Items)
T3CC0 002:377.910   CPU_ReadMem(4 bytes @ 0xE000E004)
T3CC0 002:378.368   Data:  02 00 00 00
T3CC0 002:378.401 - 0.528ms returns 1 (0x1)
T3CC0 002:378.424 JLINK_WriteMemEx(0xE0001000, 0x0000001C Bytes, Flags = 0x02000004)
T3CC0 002:378.440   Data:  01 00 00 00 00 00 00 00 00 00 00 00 00 00 00 00 ...
T3CC0 002:378.476   CPU_WriteMem(28 bytes @ 0xE0001000)
T3CC0 002:378.999 - 0.589ms returns 0x1C
T3CC0 002:379.031 JLINK_HasError()
T3CC0 002:379.053 JLINK_ReadReg(R15 (PC))
T3CC0 002:379.073 - 0.028ms returns 0x08000008
T3CC0 002:379.093 JLINK_ReadReg(XPSR)
T3CC0 002:379.118 - 0.033ms returns 0x01000000
T3CC0 002:411.943 JLINK_ReadMemEx(0xE0001004, 0x4 Bytes, Flags = 0x02000000)
T3CC0 002:412.017   Data:  00 00 00 00
T3CC0 002:412.033   Debug reg: DWT_CYCCNT
T3CC0 002:412.053 - 0.117ms returns 4 (0x4)
T3CC0 002:463.806 JLINK_WriteMemEx(0x20000000, 0x00000D18 Bytes, Flags = 0x02000000)
T3CC0 002:463.850   Data:  10 65 01 20 ED 06 00 20 C5 01 00 20 C7 01 00 20 ...
T3CC0 002:464.329   CPU_WriteMem(3352 bytes @ 0x20000000)
T3CC0 002:479.454 - 15.690ms returns 0xD18
T3CC0 002:541.285 JLINK_HasError()
T3CC0 002:541.321 JLINK_SetResetType(JLINKARM_CM3_RESET_TYPE_NORMAL)
T3CC0 002:541.332 - 0.015ms returns JLINKARM_CM3_RESET_TYPE_NORMAL
T3CC0 002:541.345 JLINK_Reset()
T3CC0 002:541.376   CPU_WriteMem(4 bytes @ 0xE000EDF0)
T3CC0 002:541.756   CPU_WriteMem(4 bytes @ 0xE000EDFC)
T3CC0 002:542.145   Reset: Halt core after reset via DEMCR.VC_CORERESET.
T3CC0 002:542.207   Reset: Reset device via AIRCR.SYSRESETREQ.
T3CC0 002:542.233   CPU_WriteMem(4 bytes @ 0xE000ED0C)
T3CC0 002:595.475   CPU_ReadMem(4 bytes @ 0xE000EDF0)
T3CC0 002:596.258   CPU_ReadMem(4 bytes @ 0xE000EDF0)
T3CC0 002:597.192   CPU_WriteMem(4 bytes @ 0xE000EDF0)
T3CC0 002:597.904   CPU_WriteMem(4 bytes @ 0xE000EDFC)
T3CC0 002:604.131   CPU_ReadMem(4 bytes @ 0xE000EDF0)
T3CC0 002:608.736   CPU_WriteMem(4 bytes @ 0xE000EDFC)
T3CC0 002:609.673   CPU_WriteMem(4 bytes @ 0xE0001028)
T3CC0 002:610.422   CPU_WriteMem(4 bytes @ 0xE0001038)
T3CC0 002:611.120   CPU_WriteMem(4 bytes @ 0xE0001048)
T3CC0 002:611.819   CPU_WriteMem(4 bytes @ 0xE0001058)
T3CC0 002:612.557   CPU_WriteMem(4 bytes @ 0xE0002000)
T3CC0 002:613.311   CPU_ReadMem(4 bytes @ 0xE000EDFC)
T3CC0 002:614.277   CPU_ReadMem(4 bytes @ 0xE0001000)
T3CC0 002:615.235 - 73.933ms
T3CC0 002:615.600 JLINK_HasError()
T3CC0 002:615.665 JLINK_ReadReg(R15 (PC))
T3CC0 002:615.704 - 0.054ms returns 0x08000008
T3CC0 002:615.742 JLINK_ReadReg(XPSR)
T3CC0 002:615.771 - 0.042ms returns 0x01000000
T3CC0 002:615.981 JLINK_ReadMemEx(0x08000008, 0x3C Bytes, Flags = 0x02000000)
T3CC0 002:616.038   CPU_ReadMem(128 bytes @ 0x08000000)
T3CC0 002:617.914    -- Updating C cache (128 bytes @ 0x08000000)
T3CC0 002:617.987    -- Read from C cache (60 bytes @ 0x08000008)
T3CC0 002:618.030   Data:  4F F6 FF 71 4F F6 FF 72 92 FA 01 F1 13 49 14 4A ...
T3CC0 002:618.068 - 2.099ms returns 60 (0x3C)
T3CC0 002:618.114 JLINK_ReadMemEx(0x08000008, 0x2 Bytes, Flags = 0x02000000)
T3CC0 002:618.148    -- Read from C cache (2 bytes @ 0x08000008)
T3CC0 002:618.185   Data:  4F F6
T3CC0 002:618.223 - 0.122ms returns 2 (0x2)
T3CC0 002:618.634 JLINK_ReadMemEx(0x0800000A, 0x2 Bytes, Flags = 0x02000000)
T3CC0 002:618.680    -- Read from C cache (2 bytes @ 0x0800000A)
T3CC0 002:618.717   Data:  FF 71
T3CC0 002:618.754 - 0.133ms returns 2 (0x2)
T3CC0 002:620.234 JLINK_ReadMemEx(0x0800000C, 0x3C Bytes, Flags = 0x02000000)
T3CC0 002:620.269    -- Read from C cache (60 bytes @ 0x0800000C)
T3CC0 002:620.308   Data:  4F F6 FF 72 92 FA 01 F1 13 49 14 4A 14 4B 15 48 ...
T3CC0 002:620.343 - 0.121ms returns 60 (0x3C)
T3CC0 002:620.377 JLINK_ReadMemEx(0x0800000C, 0x2 Bytes, Flags = 0x02000000)
T3CC0 002:620.404    -- Read from C cache (2 bytes @ 0x0800000C)
T3CC0 002:620.440   Data:  4F F6
T3CC0 002:620.476 - 0.111ms returns 2 (0x2)
T3CC0 002:620.509 JLINK_ReadMemEx(0x0800000E, 0x2 Bytes, Flags = 0x02000000)
T3CC0 002:620.536    -- Read from C cache (2 bytes @ 0x0800000E)
T3CC0 002:620.572   Data:  FF 72
T3CC0 002:620.607 - 0.110ms returns 2 (0x2)
T3CC0 002:620.649 JLINK_ReadMemEx(0x08000010, 0x3C Bytes, Flags = 0x02000000)
T3CC0 002:620.678    -- Read from C cache (60 bytes @ 0x08000010)
T3CC0 002:620.716   Data:  92 FA 01 F1 13 49 14 4A 14 4B 15 48 10 60 18 70 ...
T3CC0 002:620.752 - 0.115ms returns 60 (0x3C)
T3CC0 002:620.785 JLINK_ReadMemEx(0x08000010, 0x2 Bytes, Flags = 0x02000000)
T3CC0 002:620.811    -- Read from C cache (2 bytes @ 0x08000010)
T3CC0 002:620.854   Data:  92 FA
T3CC0 002:620.890 - 0.117ms returns 2 (0x2)
T3CC0 002:620.923 JLINK_ReadMemEx(0x08000012, 0x2 Bytes, Flags = 0x02000000)
T3CC0 002:621.094    -- Read from C cache (2 bytes @ 0x08000012)
T3CC0 002:621.131   Data:  01 F1
T3CC0 002:621.167 - 0.256ms returns 2 (0x2)
T3CC0 002:746.058 JLINK_ReadMemEx(0x40020000, 0x14 Bytes, Flags = 0x02000004)
T3CC0 002:746.101   CPU_ReadMem(20 bytes @ 0x40020000)
T3CC0 002:746.987   Data:  00 00 00 A8 00 00 00 A8 00 00 00 A8 00 00 00 A8 ...
T3CC0 002:747.038 - 0.991ms returns 20 (0x14)
T3CC0 002:747.081 JLINK_ReadMemEx(0x40020014, 0x4 Bytes, Flags = 0x02000004)
T3CC0 002:747.120   CPU_ReadMem(4 bytes @ 0x40020014)
T3CC0 002:748.219   Data:  00 00 00 A8
T3CC0 002:748.253 - 1.178ms returns 4 (0x4)
T3CC0 002:748.278 JLINK_ReadMemEx(0x4002001C, 0x8 Bytes, Flags = 0x02000004)
T3CC0 002:748.300   CPU_ReadMem(8 bytes @ 0x4002001C)
T3CC0 002:749.283   Data:  00 00 00 A8 00 00 00 A8
T3CC0 002:749.317 - 1.044ms returns 8 (0x8)
T3CC0 002:749.341 JLINK_ReadMemEx(0x40020024, 0x4 Bytes, Flags = 0x02000004)
T3CC0 002:749.363   CPU_ReadMem(4 bytes @ 0x40020024)
T3CC0 002:749.999   Data:  00 00 00 A8
T3CC0 002:750.028 - 0.693ms returns 4 (0x4)
T3CC0 002:827.471 JLINK_ReadMemEx(0x40020400, 0x14 Bytes, Flags = 0x02000004)
T3CC0 002:827.516   CPU_ReadMem(20 bytes @ 0x40020400)
T3CC0 002:828.090   Data:  80 02 00 00 80 02 00 00 80 02 00 00 80 02 00 00 ...
T3CC0 002:828.127 - 0.662ms returns 20 (0x14)
T3CC0 002:828.154 JLINK_ReadMemEx(0x40020414, 0x4 Bytes, Flags = 0x02000004)
T3CC0 002:828.179   CPU_ReadMem(4 bytes @ 0x40020414)
T3CC0 002:828.639   Data:  80 02 00 00
T3CC0 002:828.688 - 0.540ms returns 4 (0x4)
T3CC0 002:828.724 JLINK_ReadMemEx(0x4002041C, 0x8 Bytes, Flags = 0x02000004)
T3CC0 002:828.744   CPU_ReadMem(8 bytes @ 0x4002041C)
T3CC0 002:829.257   Data:  80 02 00 00 80 02 00 00
T3CC0 002:829.278 - 0.559ms returns 8 (0x8)
T3CC0 002:829.297 JLINK_ReadMemEx(0x40020424, 0x4 Bytes, Flags = 0x02000004)
T3CC0 002:829.313   CPU_ReadMem(4 bytes @ 0x40020424)
T3CC0 002:829.817   Data:  80 02 00 00
T3CC0 002:829.834 - 0.542ms returns 4 (0x4)
T3CC0 002:898.599 JLINK_ReadMemEx(0x40023800, 0x18 Bytes, Flags = 0x02000004)
T3CC0 002:898.643   CPU_ReadMem(24 bytes @ 0x40023800)
T3CC0 002:899.378   Data:  83 88 00 00 10 30 00 24 00 00 00 00 00 00 00 00 ...
T3CC0 002:899.410 - 0.816ms returns 24 (0x18)
T3CC0 002:899.427 JLINK_ReadMemEx(0x40023818, 0x4 Bytes, Flags = 0x02000004)
T3CC0 002:899.442   CPU_ReadMem(4 bytes @ 0x40023818)
T3CC0 002:900.004   Data:  00 00 00 00
T3CC0 002:900.068 - 0.658ms returns 4 (0x4)
T3CC0 002:900.126 JLINK_ReadMemEx(0x40023820, 0x4 Bytes, Flags = 0x02000004)
T3CC0 002:900.178   CPU_ReadMem(4 bytes @ 0x40023820)
T3CC0 002:900.851   Data:  00 00 00 00
T3CC0 002:900.918 - 0.809ms returns 4 (0x4)
T3CC0 002:900.977 JLINK_ReadMemEx(0x40023824, 0x4 Bytes, Flags = 0x02000004)
T3CC0 002:901.031   CPU_ReadMem(4 bytes @ 0x40023824)
T3CC0 002:901.709   Data:  00 00 00 00
T3CC0 002:901.775 - 0.859ms returns 4 (0x4)
T3CC0 002:901.881 JLINK_ReadMemEx(0x40023830, 0x8 Bytes, Flags = 0x02000004)
T3CC0 002:901.934   CPU_ReadMem(8 bytes @ 0x40023830)
T3CC0 002:902.630   Data:  00 00 10 00 00 00 00 00
T3CC0 002:902.696 - 0.833ms returns 8 (0x8)
T3CC0 002:902.774 JLINK_ReadMemEx(0x40023838, 0x4 Bytes, Flags = 0x02000004)
T3CC0 002:903.108   CPU_ReadMem(4 bytes @ 0x40023838)
T3CC0 002:903.811   Data:  00 00 00 00
T3CC0 002:903.890 - 1.134ms returns 4 (0x4)
T3CC0 002:903.957 JLINK_ReadMemEx(0x40023840, 0x4 Bytes, Flags = 0x02000004)
T3CC0 002:904.024   CPU_ReadMem(4 bytes @ 0x40023840)
T3CC0 002:904.575   Data:  00 00 00 00
T3CC0 002:904.619 - 0.675ms returns 4 (0x4)
T3CC0 002:904.660 JLINK_ReadMemEx(0x40023844, 0x4 Bytes, Flags = 0x02000004)
T3CC0 002:904.696   CPU_ReadMem(4 bytes @ 0x40023844)
T3CC0 002:905.376   Data:  00 00 00 00
T3CC0 002:905.420 - 0.772ms returns 4 (0x4)
T3CC0 002:905.460 JLINK_ReadMemEx(0x40023850, 0x8 Bytes, Flags = 0x02000004)
T3CC0 002:905.495   CPU_ReadMem(8 bytes @ 0x40023850)
T3CC0 002:906.142   Data:  FF 97 EF 7E F1 00 00 00
T3CC0 002:906.185 - 0.736ms returns 8 (0x8)
T3CC0 002:906.233 JLINK_ReadMemEx(0x40023858, 0x4 Bytes, Flags = 0x02000004)
T3CC0 002:906.276   CPU_ReadMem(4 bytes @ 0x40023858)
T3CC0 002:906.904   Data:  01 00 00 00
T3CC0 002:906.947 - 0.726ms returns 4 (0x4)
T3CC0 002:906.987 JLINK_ReadMemEx(0x40023860, 0x4 Bytes, Flags = 0x02000004)
T3CC0 002:907.022   CPU_ReadMem(4 bytes @ 0x40023860)
T3CC0 002:907.592   Data:  FF C9 FE F6
T3CC0 002:907.635 - 0.660ms returns 4 (0x4)
T3CC0 002:907.675 JLINK_ReadMemEx(0x40023864, 0x4 Bytes, Flags = 0x02000004)
T3CC0 002:907.709   CPU_ReadMem(4 bytes @ 0x40023864)
T3CC0 002:908.271   Data:  33 7F 77 04
T3CC0 002:908.304 - 0.637ms returns 4 (0x4)
T3CC0 002:908.333 JLINK_ReadMemEx(0x40023870, 0x4 Bytes, Flags = 0x02000004)
T3CC0 002:908.359   CPU_ReadMem(4 bytes @ 0x40023870)
T3CC0 002:908.863   Data:  00 00 00 00
T3CC0 002:908.896 - 0.571ms returns 4 (0x4)
T3CC0 002:908.925 JLINK_ReadMemEx(0x40023874, 0x4 Bytes, Flags = 0x02000004)
T3CC0 002:908.952   CPU_ReadMem(4 bytes @ 0x40023874)
T3CC0 002:909.436   Data:  00 00 00 1E
T3CC0 002:909.469 - 0.552ms returns 4 (0x4)
T3CC0 002:909.498 JLINK_ReadMemEx(0x40023880, 0x4 Bytes, Flags = 0x02000004)
T3CC0 002:909.524   CPU_ReadMem(4 bytes @ 0x40023880)
T3CC0 002:910.013   Data:  00 00 00 00
T3CC0 002:910.046 - 0.556ms returns 4 (0x4)
T3CC0 002:910.075 JLINK_ReadMemEx(0x40023884, 0x4 Bytes, Flags = 0x02000004)
T3CC0 002:910.101   CPU_ReadMem(4 bytes @ 0x40023884)
T3CC0 002:910.649   Data:  00 30 00 24
T3CC0 002:910.710 - 0.648ms returns 4 (0x4)
T3CC0 005:002.618 JLINK_ReadMemEx(0x08000008, 0x3C Bytes, Flags = 0x02000000)
T3CC0 005:002.657    -- Read from C cache (60 bytes @ 0x08000008)
T3CC0 005:002.687   Data:  4F F6 FF 71 4F F6 FF 72 92 FA 01 F1 13 49 14 4A ...
T3CC0 005:002.702 - 0.089ms returns 60 (0x3C)
T3CC0 005:002.732 JLINK_ReadMemEx(0x08000008, 0x2 Bytes, Flags = 0x02000000)
T3CC0 005:002.743    -- Read from C cache (2 bytes @ 0x08000008)
T3CC0 005:002.756   Data:  4F F6
T3CC0 005:002.770 - 0.042ms returns 2 (0x2)
T3CC0 005:002.783 JLINK_ReadMemEx(0x0800000A, 0x2 Bytes, Flags = 0x02000000)
T3CC0 005:002.793    -- Read from C cache (2 bytes @ 0x0800000A)
T3CC0 005:002.806   Data:  FF 71
T3CC0 005:002.819 - 0.041ms returns 2 (0x2)
T3CC0 005:002.845 JLINK_ReadMemEx(0x0800000C, 0x3C Bytes, Flags = 0x02000000)
T3CC0 005:002.856    -- Read from C cache (60 bytes @ 0x0800000C)
T3CC0 005:002.870   Data:  4F F6 FF 72 92 FA 01 F1 13 49 14 4A 14 4B 15 48 ...
T3CC0 005:002.888 - 0.047ms returns 60 (0x3C)
T3CC0 005:002.900 JLINK_ReadMemEx(0x0800000C, 0x2 Bytes, Flags = 0x02000000)
T3CC0 005:002.910    -- Read from C cache (2 bytes @ 0x0800000C)
T3CC0 005:002.923   Data:  4F F6
T3CC0 005:002.937 - 0.041ms returns 2 (0x2)
T3CC0 005:002.949 JLINK_ReadMemEx(0x0800000E, 0x2 Bytes, Flags = 0x02000000)
T3CC0 005:002.959    -- Read from C cache (2 bytes @ 0x0800000E)
T3CC0 005:002.972   Data:  FF 72
T3CC0 005:002.985 - 0.041ms returns 2 (0x2)
T3CC0 005:003.001 JLINK_ReadMemEx(0x08000010, 0x3C Bytes, Flags = 0x02000000)
T3CC0 005:003.011    -- Read from C cache (60 bytes @ 0x08000010)
T3CC0 005:003.025   Data:  92 FA 01 F1 13 49 14 4A 14 4B 15 48 10 60 18 70 ...
T3CC0 005:003.038 - 0.042ms returns 60 (0x3C)
T3CC0 005:003.050 JLINK_ReadMemEx(0x08000010, 0x2 Bytes, Flags = 0x02000000)
T3CC0 005:003.060    -- Read from C cache (2 bytes @ 0x08000010)
T3CC0 005:003.073   Data:  92 FA
T3CC0 005:003.087 - 0.041ms returns 2 (0x2)
T3CC0 005:003.099 JLINK_ReadMemEx(0x08000012, 0x2 Bytes, Flags = 0x02000000)
T3CC0 005:003.109    -- Read from C cache (2 bytes @ 0x08000012)
T3CC0 005:003.122   Data:  01 F1
T3CC0 005:003.135 - 0.041ms returns 2 (0x2)
T3CC0 005:003.150 JLINK_ReadMemEx(0x08000014, 0x3C Bytes, Flags = 0x02000000)
T3CC0 005:003.161    -- Read from C cache (60 bytes @ 0x08000014)
T3CC0 005:003.175   Data:  13 49 14 4A 14 4B 15 48 10 60 18 70 08 68 14 68 ...
T3CC0 005:003.188 - 0.042ms returns 60 (0x3C)
T3CC0 005:003.201 JLINK_ReadMemEx(0x08000014, 0x2 Bytes, Flags = 0x02000000)
T3CC0 005:003.211    -- Read from C cache (2 bytes @ 0x08000014)
T3CC0 005:003.232   Data:  13 49
T3CC0 005:003.245 - 0.048ms returns 2 (0x2)
T3CC0 005:003.258 JLINK_ReadMemEx(0x08000016, 0x2 Bytes, Flags = 0x02000000)
T3CC0 005:003.268    -- Read from C cache (2 bytes @ 0x08000016)
T3CC0 005:003.281   Data:  14 4A
T3CC0 005:003.294 - 0.041ms returns 2 (0x2)
T3CC0 005:003.311 JLINK_ReadMemEx(0x08000016, 0x2 Bytes, Flags = 0x02000000)
T3CC0 005:003.321    -- Read from C cache (2 bytes @ 0x08000016)
T3CC0 005:003.334   Data:  14 4A
T3CC0 005:003.348 - 0.041ms returns 2 (0x2)
T3CC0 005:003.359 JLINK_ReadMemEx(0x08000018, 0x3C Bytes, Flags = 0x02000000)
T3CC0 005:003.369    -- Read from C cache (60 bytes @ 0x08000018)
T3CC0 005:003.383   Data:  14 4B 15 48 10 60 18 70 08 68 14 68 15 78 0F 49 ...
T3CC0 005:003.397 - 0.041ms returns 60 (0x3C)
T3CC0 005:003.409 JLINK_ReadMemEx(0x08000018, 0x2 Bytes, Flags = 0x02000000)
T3CC0 005:003.418    -- Read from C cache (2 bytes @ 0x08000018)
T3CC0 005:003.431   Data:  14 4B
T3CC0 005:003.445 - 0.040ms returns 2 (0x2)
T3CC0 005:426.132 JLINK_HasError()
T3CC0 005:426.160 JLINK_ReadReg(R0)
T3CC0 005:426.621 - 0.471ms returns 0x00000000
T3CC0 005:426.642 JLINK_ReadReg(R1)
T3CC0 005:426.653 - 0.015ms returns 0x00000000
T3CC0 005:426.666 JLINK_ReadReg(R2)
T3CC0 005:426.675 - 0.014ms returns 0x00000000
T3CC0 005:426.688 JLINK_ReadReg(R3)
T3CC0 005:426.697 - 0.014ms returns 0x00000000
T3CC0 005:426.710 JLINK_ReadReg(R4)
T3CC0 005:426.719 - 0.014ms returns 0x00000000
T3CC0 005:426.731 JLINK_ReadReg(R5)
T3CC0 005:426.741 - 0.014ms returns 0x00000000
T3CC0 005:426.753 JLINK_ReadReg(R6)
T3CC0 005:426.762 - 0.014ms returns 0x00000000
T3CC0 005:426.774 JLINK_ReadReg(R7)
T3CC0 005:426.784 - 0.014ms returns 0x00000000
T3CC0 005:426.796 JLINK_ReadReg(R8)
T3CC0 005:426.814 - 0.022ms returns 0x00000000
T3CC0 005:426.826 JLINK_ReadReg(R9)
T3CC0 005:426.835 - 0.014ms returns 0x00000000
T3CC0 005:426.848 JLINK_ReadReg(R10)
T3CC0 005:426.857 - 0.014ms returns 0x00000000
T3CC0 005:426.871 JLINK_ReadReg(R11)
T3CC0 005:426.880 - 0.014ms returns 0x00000000
T3CC0 005:426.893 JLINK_ReadReg(R12)
T3CC0 005:426.902 - 0.014ms returns 0x00000000
T3CC0 005:426.914 JLINK_ReadReg(R13 (SP))
T3CC0 005:426.924 - 0.014ms returns 0x00000000
T3CC0 005:426.936 JLINK_ReadReg(R14)
T3CC0 005:426.946 - 0.014ms returns 0xFFFFFFFF
T3CC0 005:426.958 JLINK_ReadReg(R15 (PC))
T3CC0 005:426.967 - 0.014ms returns 0x08000008
T3CC0 005:426.979 JLINK_ReadReg(XPSR)
T3CC0 005:426.989 - 0.014ms returns 0x01000000
T3CC0 005:427.001 JLINK_ReadReg(MSP)
T3CC0 005:427.010 - 0.014ms returns 0x00000000
T3CC0 005:427.022 JLINK_ReadReg(PSP)
T3CC0 005:427.032 - 0.014ms returns 0x00000000
T3CC0 005:427.044 JLINK_ReadReg(CFBP)
T3CC0 005:427.053 - 0.014ms returns 0x00000000
T3CC0 005:427.066 JLINK_ReadReg(FPSCR)
T3CC0 005:431.741 - 4.763ms returns 0x00000000
T3CC0 005:431.887 JLINK_ReadReg(FPS0)
T3CC0 005:431.978 - 0.123ms returns 0x00000000
T3CC0 005:432.073 JLINK_ReadReg(FPS1)
T3CC0 005:432.112 - 0.056ms returns 0x00000000
T3CC0 005:432.165 JLINK_ReadReg(FPS2)
T3CC0 005:432.203 - 0.053ms returns 0x00000000
T3CC0 005:432.344 JLINK_ReadReg(FPS3)
T3CC0 005:432.425 - 0.104ms returns 0x00000000
T3CC0 005:432.474 JLINK_ReadReg(FPS4)
T3CC0 005:432.502 - 0.040ms returns 0x00000000
T3CC0 005:432.534 JLINK_ReadReg(FPS5)
T3CC0 005:432.620 - 0.099ms returns 0x00000000
T3CC0 005:432.657 JLINK_ReadReg(FPS6)
T3CC0 005:432.682 - 0.037ms returns 0x00000000
T3CC0 005:432.714 JLINK_ReadReg(FPS7)
T3CC0 005:432.738 - 0.076ms returns 0x00000000
T3CC0 005:432.822 JLINK_ReadReg(FPS8)
T3CC0 005:432.853 - 0.043ms returns 0x00000000
T3CC0 005:432.892 JLINK_ReadReg(FPS9)
T3CC0 005:432.917 - 0.037ms returns 0x00000000
T3CC0 005:432.948 JLINK_ReadReg(FPS10)
T3CC0 005:432.973 - 0.036ms returns 0x00000000
T3CC0 005:433.006 JLINK_ReadReg(FPS11)
T3CC0 005:433.030 - 0.036ms returns 0x00000000
T3CC0 005:433.061 JLINK_ReadReg(FPS12)
T3CC0 005:433.085 - 0.036ms returns 0x00000000
T3CC0 005:433.116 JLINK_ReadReg(FPS13)
T3CC0 005:433.140 - 0.036ms returns 0x00000000
T3CC0 005:433.179 JLINK_ReadReg(FPS14)
T3CC0 005:433.210 - 0.042ms returns 0x00000000
T3CC0 005:433.240 JLINK_ReadReg(FPS15)
T3CC0 005:433.265 - 0.036ms returns 0x00000000
T3CC0 005:433.296 JLINK_ReadReg(FPS16)
T3CC0 005:433.320 - 0.036ms returns 0x00000000
T3CC0 005:433.351 JLINK_ReadReg(FPS17)
T3CC0 005:433.375 - 0.035ms returns 0x00000000
T3CC0 005:433.406 JLINK_ReadReg(FPS18)
T3CC0 005:433.430 - 0.036ms returns 0x00000000
T3CC0 005:433.461 JLINK_ReadReg(FPS19)
T3CC0 005:433.485 - 0.035ms returns 0x00000000
T3CC0 005:433.516 JLINK_ReadReg(FPS20)
T3CC0 005:433.540 - 0.036ms returns 0x00000000
T3CC0 005:433.570 JLINK_ReadReg(FPS21)
T3CC0 005:433.595 - 0.036ms returns 0x00000000
T3CC0 005:433.626 JLINK_ReadReg(FPS22)
T3CC0 005:433.650 - 0.035ms returns 0x00000000
T3CC0 005:433.680 JLINK_ReadReg(FPS23)
T3CC0 005:433.704 - 0.035ms returns 0x00000000
T3CC0 005:433.734 JLINK_ReadReg(FPS24)
T3CC0 005:433.758 - 0.035ms returns 0x00000000
T3CC0 005:433.788 JLINK_ReadReg(FPS25)
T3CC0 005:433.812 - 0.035ms returns 0x00000000
T3CC0 005:433.842 JLINK_ReadReg(FPS26)
T3CC0 005:433.866 - 0.068ms returns 0x00000000
T3CC0 005:433.951 JLINK_ReadReg(FPS27)
T3CC0 005:433.989 - 0.053ms returns 0x00000000
T3CC0 005:434.041 JLINK_ReadReg(FPS28)
T3CC0 005:434.081 - 0.057ms returns 0x00000000
T3CC0 005:434.125 JLINK_ReadReg(FPS29)
T3CC0 005:434.167 - 0.059ms returns 0x00000000
T3CC0 005:434.214 JLINK_ReadReg(FPS30)
T3CC0 005:434.248 - 0.051ms returns 0x00000000
T3CC0 005:434.291 JLINK_ReadReg(FPS31)
T3CC0 005:434.329 - 0.056ms returns 0x00000000
T3CC0 005:827.488 JLINK_WriteMemEx(0x20000000, 0x00000D18 Bytes, Flags = 0x02000000)
T3CC0 005:827.520   Data:  10 65 01 20 ED 06 00 20 C5 01 00 20 C7 01 00 20 ...
T3CC0 005:827.551   CPU_WriteMem(3352 bytes @ 0x20000000)
T3CC0 005:842.906 - 15.442ms returns 0xD18
T3CC0 005:895.693 JLINK_ReadMemEx(0x20000000, 0x4 Bytes, Flags = 0x02000000)
T3CC0 005:895.740   CPU_ReadMem(64 bytes @ 0x20000000)
T3CC0 005:897.132    -- Updating C cache (64 bytes @ 0x20000000)
T3CC0 005:897.178    -- Read from C cache (4 bytes @ 0x20000000)
T3CC0 005:897.200   Data:  10 65 01 20
T3CC0 005:897.221 - 1.536ms returns 4 (0x4)
T3CC0 005:897.537 JLINK_HasError()
T3CC0 005:897.582 JLINK_WriteReg(R13 (SP), 0x20016510)
T3CC0 005:897.606 - 0.074ms returns 0
T3CC0 005:897.682 JLINK_HasError()
T3CC0 005:897.703 JLINK_ReadReg(R0)
T3CC0 005:897.728 - 0.033ms returns 0x00000000
T3CC0 005:897.749 JLINK_ReadReg(R1)
T3CC0 005:897.765 - 0.023ms returns 0x00000000
T3CC0 005:897.784 JLINK_ReadReg(R2)
T3CC0 005:897.801 - 0.025ms returns 0x00000000
T3CC0 005:897.822 JLINK_ReadReg(R3)
T3CC0 005:897.837 - 0.022ms returns 0x00000000
T3CC0 005:897.856 JLINK_ReadReg(R4)
T3CC0 005:897.873 - 0.025ms returns 0x00000000
T3CC0 005:897.898 JLINK_ReadReg(R5)
T3CC0 005:897.912 - 0.018ms returns 0x00000000
T3CC0 005:897.925 JLINK_ReadReg(R6)
T3CC0 005:897.936 - 0.016ms returns 0x00000000
T3CC0 005:897.950 JLINK_ReadReg(R7)
T3CC0 005:897.961 - 0.016ms returns 0x00000000
T3CC0 005:897.974 JLINK_ReadReg(R8)
T3CC0 005:897.985 - 0.015ms returns 0x00000000
T3CC0 005:897.998 JLINK_ReadReg(R9)
T3CC0 005:898.009 - 0.015ms returns 0x00000000
T3CC0 005:898.022 JLINK_ReadReg(R10)
T3CC0 005:898.033 - 0.015ms returns 0x00000000
T3CC0 005:898.047 JLINK_ReadReg(R11)
T3CC0 005:898.057 - 0.015ms returns 0x00000000
T3CC0 005:898.071 JLINK_ReadReg(R12)
T3CC0 005:898.081 - 0.015ms returns 0x00000000
T3CC0 005:898.094 JLINK_ReadReg(R13 (SP))
T3CC0 005:898.105 - 0.016ms returns 0x20016510
T3CC0 005:898.119 JLINK_ReadReg(R14)
T3CC0 005:898.129 - 0.015ms returns 0xFFFFFFFF
T3CC0 005:898.143 JLINK_ReadReg(R15 (PC))
T3CC0 005:898.153 - 0.015ms returns 0x08000008
T3CC0 005:898.167 JLINK_ReadReg(XPSR)
T3CC0 005:898.177 - 0.015ms returns 0x01000000
T3CC0 005:898.191 JLINK_ReadReg(MSP)
T3CC0 005:898.201 - 0.015ms returns 0x20016510
T3CC0 005:898.214 JLINK_ReadReg(PSP)
T3CC0 005:898.225 - 0.015ms returns 0x00000000
T3CC0 005:898.238 JLINK_ReadReg(CFBP)
T3CC0 005:898.249 - 0.015ms returns 0x00000000
T3CC0 005:898.328 JLINK_ReadReg(FPSCR)
T3CC0 005:898.345 - 0.021ms returns 0x00000000
T3CC0 005:898.358 JLINK_ReadReg(FPS0)
T3CC0 005:898.369 - 0.015ms returns 0x00000000
T3CC0 005:898.382 JLINK_ReadReg(FPS1)
T3CC0 005:898.393 - 0.015ms returns 0x00000000
T3CC0 005:898.406 JLINK_ReadReg(FPS2)
T3CC0 005:898.417 - 0.015ms returns 0x00000000
T3CC0 005:898.430 JLINK_ReadReg(FPS3)
T3CC0 005:898.441 - 0.015ms returns 0x00000000
T3CC0 005:898.454 JLINK_ReadReg(FPS4)
T3CC0 005:898.465 - 0.015ms returns 0x00000000
T3CC0 005:898.478 JLINK_ReadReg(FPS5)
T3CC0 005:898.489 - 0.015ms returns 0x00000000
T3CC0 005:898.502 JLINK_ReadReg(FPS6)
T3CC0 005:898.513 - 0.015ms returns 0x00000000
T3CC0 005:898.526 JLINK_ReadReg(FPS7)
T3CC0 005:898.537 - 0.015ms returns 0x00000000
T3CC0 005:898.550 JLINK_ReadReg(FPS8)
T3CC0 005:898.561 - 0.015ms returns 0x00000000
T3CC0 005:898.574 JLINK_ReadReg(FPS9)
T3CC0 005:898.585 - 0.015ms returns 0x00000000
T3CC0 005:898.598 JLINK_ReadReg(FPS10)
T3CC0 005:898.609 - 0.015ms returns 0x00000000
T3CC0 005:898.622 JLINK_ReadReg(FPS11)
T3CC0 005:898.639 - 0.022ms returns 0x00000000
T3CC0 005:898.652 JLINK_ReadReg(FPS12)
T3CC0 005:898.663 - 0.015ms returns 0x00000000
T3CC0 005:898.676 JLINK_ReadReg(FPS13)
T3CC0 005:898.687 - 0.015ms returns 0x00000000
T3CC0 005:898.700 JLINK_ReadReg(FPS14)
T3CC0 005:898.710 - 0.015ms returns 0x00000000
T3CC0 005:898.724 JLINK_ReadReg(FPS15)
T3CC0 005:898.734 - 0.015ms returns 0x00000000
T3CC0 005:898.748 JLINK_ReadReg(FPS16)
T3CC0 005:898.758 - 0.015ms returns 0x00000000
T3CC0 005:898.771 JLINK_ReadReg(FPS17)
T3CC0 005:898.782 - 0.015ms returns 0x00000000
T3CC0 005:898.795 JLINK_ReadReg(FPS18)
T3CC0 005:898.806 - 0.015ms returns 0x00000000
T3CC0 005:898.819 JLINK_ReadReg(FPS19)
T3CC0 005:898.830 - 0.015ms returns 0x00000000
T3CC0 005:898.843 JLINK_ReadReg(FPS20)
T3CC0 005:898.854 - 0.015ms returns 0x00000000
T3CC0 005:898.867 JLINK_ReadReg(FPS21)
T3CC0 005:898.877 - 0.015ms returns 0x00000000
T3CC0 005:898.891 JLINK_ReadReg(FPS22)
T3CC0 005:898.901 - 0.015ms returns 0x00000000
T3CC0 005:898.915 JLINK_ReadReg(FPS23)
T3CC0 005:898.925 - 0.015ms returns 0x00000000
T3CC0 005:898.938 JLINK_ReadReg(FPS24)
T3CC0 005:898.949 - 0.015ms returns 0x00000000
T3CC0 005:898.962 JLINK_ReadReg(FPS25)
T3CC0 005:898.972 - 0.015ms returns 0x00000000
T3CC0 005:898.986 JLINK_ReadReg(FPS26)
T3CC0 005:898.996 - 0.015ms returns 0x00000000
T3CC0 005:899.009 JLINK_ReadReg(FPS27)
T3CC0 005:899.020 - 0.015ms returns 0x00000000
T3CC0 005:899.033 JLINK_ReadReg(FPS28)
T3CC0 005:899.044 - 0.015ms returns 0x00000000
T3CC0 005:899.057 JLINK_ReadReg(FPS29)
T3CC0 005:899.067 - 0.015ms returns 0x00000000
T3CC0 005:899.081 JLINK_ReadReg(FPS30)
T3CC0 005:899.091 - 0.015ms returns 0x00000000
T3CC0 005:899.104 JLINK_ReadReg(FPS31)
T3CC0 005:899.115 - 0.015ms returns 0x00000000
T3CC0 005:899.131 JLINK_ReadMemEx(0x20000004, 0x4 Bytes, Flags = 0x02000000)
T3CC0 005:899.146    -- Read from C cache (4 bytes @ 0x20000004)
T3CC0 005:899.162   Data:  ED 06 00 20
T3CC0 005:899.177 - 0.051ms returns 4 (0x4)
T3CC0 005:899.193 JLINK_HasError()
T3CC0 005:899.207 JLINK_WriteReg(R15 (PC), 0x200006EC)
T3CC0 005:899.218 - 0.016ms returns 0
T3CC0 005:899.233 JLINK_HasError()
T3CC0 005:899.247 JLINK_ReadReg(R0)
T3CC0 005:899.257 - 0.015ms returns 0x00000000
T3CC0 005:899.271 JLINK_ReadReg(R1)
T3CC0 005:899.281 - 0.015ms returns 0x00000000
T3CC0 005:899.295 JLINK_ReadReg(R2)
T3CC0 005:899.305 - 0.015ms returns 0x00000000
T3CC0 005:899.319 JLINK_ReadReg(R3)
T3CC0 005:899.329 - 0.015ms returns 0x00000000
T3CC0 005:899.342 JLINK_ReadReg(R4)
T3CC0 005:899.353 - 0.015ms returns 0x00000000
T3CC0 005:899.366 JLINK_ReadReg(R5)
T3CC0 005:899.377 - 0.015ms returns 0x00000000
T3CC0 005:899.390 JLINK_ReadReg(R6)
T3CC0 005:899.400 - 0.015ms returns 0x00000000
T3CC0 005:899.414 JLINK_ReadReg(R7)
T3CC0 005:899.424 - 0.015ms returns 0x00000000
T3CC0 005:899.437 JLINK_ReadReg(R8)
T3CC0 005:899.448 - 0.015ms returns 0x00000000
T3CC0 005:899.461 JLINK_ReadReg(R9)
T3CC0 005:899.474 - 0.019ms returns 0x00000000
T3CC0 005:899.489 JLINK_ReadReg(R10)
T3CC0 005:899.500 - 0.015ms returns 0x00000000
T3CC0 005:899.513 JLINK_ReadReg(R11)
T3CC0 005:899.523 - 0.015ms returns 0x00000000
T3CC0 005:899.537 JLINK_ReadReg(R12)
T3CC0 005:899.547 - 0.015ms returns 0x00000000
T3CC0 005:899.561 JLINK_ReadReg(R13 (SP))
T3CC0 005:899.571 - 0.015ms returns 0x20016510
T3CC0 005:899.585 JLINK_ReadReg(R14)
T3CC0 005:899.595 - 0.015ms returns 0xFFFFFFFF
T3CC0 005:899.609 JLINK_ReadReg(R15 (PC))
T3CC0 005:899.619 - 0.017ms returns 0x200006EC
T3CC0 005:899.635 JLINK_ReadReg(XPSR)
T3CC0 005:899.645 - 0.015ms returns 0x01000000
T3CC0 005:899.659 JLINK_ReadReg(MSP)
T3CC0 005:899.669 - 0.015ms returns 0x20016510
T3CC0 005:899.682 JLINK_ReadReg(PSP)
T3CC0 005:899.693 - 0.015ms returns 0x00000000
T3CC0 005:899.706 JLINK_ReadReg(CFBP)
T3CC0 005:899.717 - 0.015ms returns 0x00000000
T3CC0 005:899.730 JLINK_ReadReg(FPSCR)
T3CC0 005:899.741 - 0.015ms returns 0x00000000
T3CC0 005:899.754 JLINK_ReadReg(FPS0)
T3CC0 005:899.764 - 0.015ms returns 0x00000000
T3CC0 005:899.778 JLINK_ReadReg(FPS1)
T3CC0 005:899.788 - 0.015ms returns 0x00000000
T3CC0 005:899.802 JLINK_ReadReg(FPS2)
T3CC0 005:899.812 - 0.015ms returns 0x00000000
T3CC0 005:899.825 JLINK_ReadReg(FPS3)
T3CC0 005:899.836 - 0.023ms returns 0x00000000
T3CC0 005:899.857 JLINK_ReadReg(FPS4)
T3CC0 005:899.867 - 0.015ms returns 0x00000000
T3CC0 005:899.881 JLINK_ReadReg(FPS5)
T3CC0 005:899.891 - 0.015ms returns 0x00000000
T3CC0 005:899.904 JLINK_ReadReg(FPS6)
T3CC0 005:899.915 - 0.015ms returns 0x00000000
T3CC0 005:899.928 JLINK_ReadReg(FPS7)
T3CC0 005:899.939 - 0.015ms returns 0x00000000
T3CC0 005:899.952 JLINK_ReadReg(FPS8)
T3CC0 005:899.962 - 0.015ms returns 0x00000000
T3CC0 005:899.976 JLINK_ReadReg(FPS9)
T3CC0 005:899.986 - 0.015ms returns 0x00000000
T3CC0 005:899.999 JLINK_ReadReg(FPS10)
T3CC0 005:900.010 - 0.015ms returns 0x00000000
T3CC0 005:900.023 JLINK_ReadReg(FPS11)
T3CC0 005:900.034 - 0.015ms returns 0x00000000
T3CC0 005:900.047 JLINK_ReadReg(FPS12)
T3CC0 005:900.058 - 0.015ms returns 0x00000000
T3CC0 005:900.071 JLINK_ReadReg(FPS13)
T3CC0 005:900.081 - 0.015ms returns 0x00000000
T3CC0 005:900.095 JLINK_ReadReg(FPS14)
T3CC0 005:900.105 - 0.015ms returns 0x00000000
T3CC0 005:900.118 JLINK_ReadReg(FPS15)
T3CC0 005:900.129 - 0.015ms returns 0x00000000
T3CC0 005:900.142 JLINK_ReadReg(FPS16)
T3CC0 005:900.153 - 0.015ms returns 0x00000000
T3CC0 005:900.166 JLINK_ReadReg(FPS17)
T3CC0 005:900.176 - 0.015ms returns 0x00000000
T3CC0 005:900.190 JLINK_ReadReg(FPS18)
T3CC0 005:900.200 - 0.015ms returns 0x00000000
T3CC0 005:900.213 JLINK_ReadReg(FPS19)
T3CC0 005:900.224 - 0.015ms returns 0x00000000
T3CC0 005:900.237 JLINK_ReadReg(FPS20)
T3CC0 005:900.248 - 0.015ms returns 0x00000000
T3CC0 005:900.261 JLINK_ReadReg(FPS21)
T3CC0 005:900.271 - 0.015ms returns 0x00000000
T3CC0 005:900.285 JLINK_ReadReg(FPS22)
T3CC0 005:900.295 - 0.015ms returns 0x00000000
T3CC0 005:900.308 JLINK_ReadReg(FPS23)
T3CC0 005:900.319 - 0.015ms returns 0x00000000
T3CC0 005:900.332 JLINK_ReadReg(FPS24)
T3CC0 005:900.343 - 0.015ms returns 0x00000000
T3CC0 005:900.356 JLINK_ReadReg(FPS25)
T3CC0 005:900.366 - 0.015ms returns 0x00000000
T3CC0 005:900.380 JLINK_ReadReg(FPS26)
T3CC0 005:900.390 - 0.015ms returns 0x00000000
T3CC0 005:900.404 JLINK_ReadReg(FPS27)
T3CC0 005:900.414 - 0.015ms returns 0x00000000
T3CC0 005:900.427 JLINK_ReadReg(FPS28)
T3CC0 005:900.438 - 0.015ms returns 0x00000000
T3CC0 005:900.451 JLINK_ReadReg(FPS29)
T3CC0 005:900.461 - 0.015ms returns 0x00000000
T3CC0 005:900.475 JLINK_ReadReg(FPS30)
T3CC0 005:900.485 - 0.015ms returns 0x00000000
T3CC0 005:900.499 JLINK_ReadReg(FPS31)
T3CC0 005:900.509 - 0.015ms returns 0x00000000
T3CC0 005:900.524 JLINK_WriteMemEx(0xE000ED08, 0x00000004 Bytes, Flags = 0x02000000)
T3CC0 005:900.535   Data:  00 00 00 20
T3CC0 005:900.563   CPU_WriteMem(4 bytes @ 0xE000ED08)
T3CC0 005:901.264 - 0.762ms returns 0x4
T3CC0 005:927.838 JLINK_HasError()
T3CC0 005:927.910 JLINK_ReadMemU32(0xE0001004, 0x1 Items)
T3CC0 005:927.947   Data:  00 00 00 00
T3CC0 005:927.975   Debug reg: DWT_CYCCNT
T3CC0 005:927.989 - 0.097ms returns 1 (0x1)
T3CC0 005:928.138 JLINK_ReadMemEx(0x40020000, 0x14 Bytes, Flags = 0x02000004)
T3CC0 005:928.155   CPU_ReadMem(20 bytes @ 0x40020000)
T3CC0 005:929.256   Data:  00 00 00 A8 00 00 00 A8 00 00 00 A8 00 00 00 A8 ...
T3CC0 005:929.290 - 1.157ms returns 20 (0x14)
T3CC0 005:929.330 JLINK_ReadMemEx(0x40020014, 0x4 Bytes, Flags = 0x02000004)
T3CC0 005:929.353   CPU_ReadMem(4 bytes @ 0x40020014)
T3CC0 005:930.520   Data:  00 00 00 A8
T3CC0 005:930.572 - 1.248ms returns 4 (0x4)
T3CC0 005:930.603 JLINK_ReadMemEx(0x4002001C, 0x8 Bytes, Flags = 0x02000004)
T3CC0 005:930.634   CPU_ReadMem(8 bytes @ 0x4002001C)
T3CC0 005:931.160   Data:  00 00 00 A8 00 00 00 A8
T3CC0 005:931.206 - 0.609ms returns 8 (0x8)
T3CC0 005:931.256 JLINK_ReadMemEx(0x40020024, 0x4 Bytes, Flags = 0x02000004)
T3CC0 005:931.304   CPU_ReadMem(4 bytes @ 0x40020024)
T3CC0 005:932.205   Data:  00 00 00 A8
T3CC0 005:932.250 - 0.999ms returns 4 (0x4)
T3CC0 005:932.707 JLINK_ReadMemEx(0x40020400, 0x14 Bytes, Flags = 0x02000004)
T3CC0 005:932.731   CPU_ReadMem(20 bytes @ 0x40020400)
T3CC0 005:933.775   Data:  80 02 00 00 80 02 00 00 80 02 00 00 80 02 00 00 ...
T3CC0 005:933.813 - 1.113ms returns 20 (0x14)
T3CC0 005:933.844 JLINK_ReadMemEx(0x40020414, 0x4 Bytes, Flags = 0x02000004)
T3CC0 005:933.875   CPU_ReadMem(4 bytes @ 0x40020414)
T3CC0 005:934.490   Data:  80 02 00 00
T3CC0 005:934.524 - 0.686ms returns 4 (0x4)
T3CC0 005:934.564 JLINK_ReadMemEx(0x4002041C, 0x8 Bytes, Flags = 0x02000004)
T3CC0 005:934.585   CPU_ReadMem(8 bytes @ 0x4002041C)
T3CC0 005:935.108   Data:  80 02 00 00 80 02 00 00
T3CC0 005:935.132 - 0.586ms returns 8 (0x8)
T3CC0 005:935.165 JLINK_ReadMemEx(0x40020424, 0x4 Bytes, Flags = 0x02000004)
T3CC0 005:935.204   CPU_ReadMem(4 bytes @ 0x40020424)
T3CC0 005:935.991   Data:  80 02 00 00
T3CC0 005:936.025 - 0.865ms returns 4 (0x4)
T3CC0 005:936.434 JLINK_ReadMemEx(0x40023800, 0x18 Bytes, Flags = 0x02000004)
T3CC0 005:936.483   CPU_ReadMem(24 bytes @ 0x40023800)
T3CC0 005:937.286   Data:  83 88 00 00 10 30 00 24 00 00 00 00 00 00 00 00 ...
T3CC0 005:937.313 - 0.884ms returns 24 (0x18)
T3CC0 005:937.333 JLINK_ReadMemEx(0x40023818, 0x4 Bytes, Flags = 0x02000004)
T3CC0 005:937.352   CPU_ReadMem(4 bytes @ 0x40023818)
T3CC0 005:938.284   Data:  00 00 00 00
T3CC0 005:938.318 - 0.990ms returns 4 (0x4)
T3CC0 005:938.342 JLINK_ReadMemEx(0x40023820, 0x4 Bytes, Flags = 0x02000004)
T3CC0 005:938.363   CPU_ReadMem(4 bytes @ 0x40023820)
T3CC0 005:939.364   Data:  00 00 00 00
T3CC0 005:939.399 - 1.062ms returns 4 (0x4)
T3CC0 005:939.423 JLINK_ReadMemEx(0x40023824, 0x4 Bytes, Flags = 0x02000004)
T3CC0 005:939.445   CPU_ReadMem(4 bytes @ 0x40023824)
T3CC0 005:939.959   Data:  00 00 00 00
T3CC0 005:940.006 - 0.588ms returns 4 (0x4)
T3CC0 005:940.029 JLINK_ReadMemEx(0x40023830, 0x8 Bytes, Flags = 0x02000004)
T3CC0 005:940.050   CPU_ReadMem(8 bytes @ 0x40023830)
T3CC0 005:940.919   Data:  00 00 10 00 00 00 00 00
T3CC0 005:940.998 - 0.977ms returns 8 (0x8)
T3CC0 005:941.030 JLINK_ReadMemEx(0x40023838, 0x4 Bytes, Flags = 0x02000004)
T3CC0 005:941.082   CPU_ReadMem(4 bytes @ 0x40023838)
T3CC0 005:941.620   Data:  00 00 00 00
T3CC0 005:941.670 - 0.646ms returns 4 (0x4)
T3CC0 005:941.700 JLINK_ReadMemEx(0x40023840, 0x4 Bytes, Flags = 0x02000004)
T3CC0 005:941.760   CPU_ReadMem(4 bytes @ 0x40023840)
T3CC0 005:942.337   Data:  00 00 00 00
T3CC0 005:942.373 - 0.681ms returns 4 (0x4)
T3CC0 005:942.401 JLINK_ReadMemEx(0x40023844, 0x4 Bytes, Flags = 0x02000004)
T3CC0 005:942.428   CPU_ReadMem(4 bytes @ 0x40023844)
T3CC0 005:942.885   Data:  00 00 00 00
T3CC0 005:942.922 - 0.525ms returns 4 (0x4)
T3CC0 005:942.941 JLINK_ReadMemEx(0x40023850, 0x8 Bytes, Flags = 0x02000004)
T3CC0 005:942.966   CPU_ReadMem(8 bytes @ 0x40023850)
T3CC0 005:943.768   Data:  FF 97 EF 7E F1 00 00 00
T3CC0 005:943.803 - 0.867ms returns 8 (0x8)
T3CC0 005:943.861 JLINK_ReadMemEx(0x40023858, 0x4 Bytes, Flags = 0x02000004)
T3CC0 005:943.894   CPU_ReadMem(4 bytes @ 0x40023858)
T3CC0 005:944.880   Data:  01 00 00 00
T3CC0 005:944.915 - 1.060ms returns 4 (0x4)
T3CC0 005:944.940 JLINK_ReadMemEx(0x40023860, 0x4 Bytes, Flags = 0x02000004)
T3CC0 005:944.962   CPU_ReadMem(4 bytes @ 0x40023860)
T3CC0 005:945.962   Data:  FF C9 FE F6
T3CC0 005:946.002 - 1.067ms returns 4 (0x4)
T3CC0 005:946.026 JLINK_ReadMemEx(0x40023864, 0x4 Bytes, Flags = 0x02000004)
T3CC0 005:946.048   CPU_ReadMem(4 bytes @ 0x40023864)
T3CC0 005:947.102   Data:  33 7F 77 04
T3CC0 005:947.222 - 1.202ms returns 4 (0x4)
T3CC0 005:947.252 JLINK_ReadMemEx(0x40023870, 0x4 Bytes, Flags = 0x02000004)
T3CC0 005:947.281   CPU_ReadMem(4 bytes @ 0x40023870)
T3CC0 005:947.744   Data:  00 00 00 00
T3CC0 005:947.801 - 0.553ms returns 4 (0x4)
T3CC0 005:947.885 JLINK_ReadMemEx(0x40023874, 0x4 Bytes, Flags = 0x02000004)
T3CC0 005:947.912   CPU_ReadMem(4 bytes @ 0x40023874)
T3CC0 005:948.571   Data:  00 00 00 1E
T3CC0 005:948.601 - 0.722ms returns 4 (0x4)
T3CC0 005:948.625 JLINK_ReadMemEx(0x40023880, 0x4 Bytes, Flags = 0x02000004)
T3CC0 005:948.645   CPU_ReadMem(4 bytes @ 0x40023880)
T3CC0 005:949.255   Data:  00 00 00 00
T3CC0 005:949.284 - 0.664ms returns 4 (0x4)
T3CC0 005:949.320 JLINK_ReadMemEx(0x40023884, 0x4 Bytes, Flags = 0x02000004)
T3CC0 005:949.339   CPU_ReadMem(4 bytes @ 0x40023884)
T3CC0 005:950.164   Data:  00 30 00 24
T3CC0 005:950.253 - 0.954ms returns 4 (0x4)
T3CC0 005:955.261 JLINK_ReadMemEx(0x200006EC, 0x3C Bytes, Flags = 0x02000000)
T3CC0 005:955.304   CPU_ReadMem(128 bytes @ 0x200006C0)
T3CC0 005:956.663    -- Updating C cache (128 bytes @ 0x200006C0)
T3CC0 005:956.703    -- Read from C cache (60 bytes @ 0x200006EC)
T3CC0 005:956.723   Data:  06 48 80 47 06 48 00 47 FE E7 FE E7 FE E7 FE E7 ...
T3CC0 005:956.746 - 1.499ms returns 60 (0x3C)
T3CC0 005:956.809 JLINK_ReadMemEx(0x200006EC, 0x2 Bytes, Flags = 0x02000000)
T3CC0 005:956.901    -- Read from C cache (2 bytes @ 0x200006EC)
T3CC0 005:956.945   Data:  06 48
T3CC0 005:956.966 - 0.165ms returns 2 (0x2)
T3CC0 005:957.003 JLINK_ReadMemEx(0x200006EE, 0x2 Bytes, Flags = 0x02000000)
T3CC0 005:957.030    -- Read from C cache (2 bytes @ 0x200006EE)
T3CC0 005:957.103   Data:  80 47
T3CC0 005:957.123 - 0.125ms returns 2 (0x2)
T3CC0 005:957.164 JLINK_ReadMemEx(0x200006EE, 0x2 Bytes, Flags = 0x02000000)
T3CC0 005:957.199    -- Read from C cache (2 bytes @ 0x200006EE)
T3CC0 005:957.214   Data:  80 47
T3CC0 005:957.230 - 0.071ms returns 2 (0x2)
T3CC0 005:957.246 JLINK_ReadMemEx(0x200006F0, 0x3C Bytes, Flags = 0x02000000)
T3CC0 005:957.258    -- Read from C cache (60 bytes @ 0x200006F0)
T3CC0 005:957.272   Data:  06 48 00 47 FE E7 FE E7 FE E7 FE E7 FE E7 FE E7 ...
T3CC0 005:957.285 - 0.043ms returns 60 (0x3C)
T3CC0 005:957.298 JLINK_ReadMemEx(0x200006F0, 0x2 Bytes, Flags = 0x02000000)
T3CC0 005:957.308    -- Read from C cache (2 bytes @ 0x200006F0)
T3CC0 005:957.322   Data:  06 48
T3CC0 005:957.335 - 0.041ms returns 2 (0x2)
T3028 008:601.167 JLINK_ReadMemEx(0x200006EC, 0x2 Bytes, Flags = 0x02000000)
T3028 008:601.209    -- Read from C cache (2 bytes @ 0x200006EC)
T3028 008:601.227   Data:  06 48
T3028 008:601.244 - 0.098ms returns 2 (0x2)
T3028 008:601.261 JLINK_HasError()
T3028 008:601.280 JLINK_Step()
T3028 008:601.743    -- Read from C cache (2 bytes @ 0x200006EC)
T3028 008:601.784   CPU_ReadMem(4 bytes @ 0xE000ED18)
T3028 008:602.575   CPU_WriteMem(4 bytes @ 0xE000ED18)
T3028 008:603.040   CPU_ReadMem(4 bytes @ 0xE000ED18)
T3028 008:603.477   CPU_WriteMem(4 bytes @ 0xE000ED18)
T3028 008:605.455    -- Read from C cache (4 bytes @ 0x20000708)
T3028 008:605.493   -- Simulated
T3028 008:605.510 - 4.235ms returns 0
T3028 008:605.544 JLINK_HasError()
T3028 008:605.580 JLINK_ReadReg(R15 (PC))
T3028 008:605.609 - 0.035ms returns 0x200006EE
T3028 008:605.633 JLINK_ReadReg(XPSR)
T3028 008:605.657 - 0.031ms returns 0x01000000
T3028 008:606.092 JLINK_HasError()
T3028 008:606.123 JLINK_ReadReg(R0)
T3028 008:606.138 - 0.021ms returns 0x20000AA7
T3028 008:606.159 JLINK_ReadReg(R1)
T3028 008:606.175 - 0.021ms returns 0x00000000
T3028 008:606.190 JLINK_ReadReg(R2)
T3028 008:606.202 - 0.017ms returns 0x00000000
T3028 008:606.217 JLINK_ReadReg(R3)
T3028 008:606.229 - 0.017ms returns 0x00000000
T3028 008:606.244 JLINK_ReadReg(R4)
T3028 008:606.256 - 0.017ms returns 0x00000000
T3028 008:606.271 JLINK_ReadReg(R5)
T3028 008:606.283 - 0.017ms returns 0x00000000
T3028 008:606.298 JLINK_ReadReg(R6)
T3028 008:606.310 - 0.017ms returns 0x00000000
T3028 008:606.325 JLINK_ReadReg(R7)
T3028 008:606.336 - 0.017ms returns 0x00000000
T3028 008:606.351 JLINK_ReadReg(R8)
T3028 008:606.363 - 0.017ms returns 0x00000000
T3028 008:606.378 JLINK_ReadReg(R9)
T3028 008:606.390 - 0.017ms returns 0x00000000
T3028 008:606.405 JLINK_ReadReg(R10)
T3028 008:606.416 - 0.017ms returns 0x00000000
T3028 008:606.431 JLINK_ReadReg(R11)
T3028 008:606.443 - 0.017ms returns 0x00000000
T3028 008:606.458 JLINK_ReadReg(R12)
T3028 008:606.470 - 0.017ms returns 0x00000000
T3028 008:606.485 JLINK_ReadReg(R13 (SP))
T3028 008:606.497 - 0.018ms returns 0x20016510
T3028 008:606.512 JLINK_ReadReg(R14)
T3028 008:606.524 - 0.017ms returns 0xFFFFFFFF
T3028 008:606.539 JLINK_ReadReg(R15 (PC))
T3028 008:606.550 - 0.135ms returns 0x200006EE
T3028 008:606.685 JLINK_ReadReg(XPSR)
T3028 008:606.699 - 0.019ms returns 0x01000000
T3028 008:606.714 JLINK_ReadReg(MSP)
T3028 008:606.726 - 0.017ms returns 0x20016510
T3028 008:606.741 JLINK_ReadReg(PSP)
T3028 008:606.753 - 0.017ms returns 0x00000000
T3028 008:606.768 JLINK_ReadReg(CFBP)
T3028 008:606.780 - 0.017ms returns 0x00000000
T3028 008:606.794 JLINK_ReadReg(FPSCR)
T3028 008:606.806 - 0.017ms returns 0x00000000
T3028 008:606.821 JLINK_ReadReg(FPS0)
T3028 008:606.832 - 0.017ms returns 0x00000000
